2024/11/05 14:21:03:770:Acquire Device Manufacture Info
00 04 17 00 00 33 B4 7A 
BMS response OK
00 04 66 58 5A 48 2D 45 6C 65 63 54 65 63 68 20 43 6F 2E 2C 4C 74 64 42 4D 53 31 36 53 31 30 30 41 2D 53 50 35 39 42 00 00 00 00 31 34 53 50 35 39 42 32 33 30 38 32 33 30 32 32 33 00 00 00 00 00 00 00 00 00 00 00 00 00 00 00 74 79 72 72 65 6C 67 61 79 00 00 00 00 00 00 00 00 00 00 00 00 00 00 00 00 00 00 00 00 00 96 D6 

2024/11/05 14:21:03:791:Acquire Pack#0Parameters【Serial battery number】
00 04 13 01 00 01 65 5F 
BMS response OK
00 04 02 00 10 85 3C 

2024/11/05 14:21:03:834:Acquire PIA(Pack#0)
00 04 10 00 00 12 75 16 
BMS response OK
00 04 24 14 BE 00 00 1F 18 27 10 00 CA 03 1C 03 E5 00 19 0C F6 0B 90 0C F8 0C F5 0B 93 0B 8E 00 00 00 50 00 50 03 E8 72 6A 

2024/11/05 14:21:03:882:Acquire PIB(Pack#0)
00 04 11 00 00 1A 75 2C 
BMS response OK
00 04 34 0C F7 0C F8 0C F7 0C F7 0C F7 0C F7 0C F8 0C F6 0C F5 0C F8 0C F7 0C F7 0C F5 0C F7 0C F7 0C F8 0B 90 0B 8E 0B 91 0B 93 0A AB 0A AB 0A AB 0A AB 0B 97 0B A1 3A 24 

2024/11/05 14:21:03:914:Acquire PIC(Pack#0)
00 01 12 00 00 90 38 CF 
BMS response OK
00 01 12 00 00 00 00 00 00 00 00 10 00 00 00 00 00 00 03 00 00 6A 24 

2024/11/05 14:21:04:960:Acquire PIA(Pack#0)
00 04 10 00 00 12 75 16 
BMS response OK
00 04 24 14 BE 00 00 1F 18 27 10 00 CA 03 1C 03 E5 00 19 0C F6 0B 90 0C F8 0C F5 0B 93 0B 8E 00 00 00 50 00 50 03 E8 72 6A 

2024/11/05 14:21:05:002:Acquire PIB(Pack#0)
00 04 11 00 00 1A 75 2C 
BMS response OK
00 04 34 0C F7 0C F8 0C F7 0C F7 0C F7 0C F7 0C F8 0C F6 0C F5 0C F8 0C F7 0C F7 0C F5 0C F7 0C F7 0C F8 0B 90 0B 8E 0B 91 0B 93 0A AB 0A AB 0A AB 0A AB 0B 97 0B A1 3A 24 

2024/11/05 14:21:05:031:Acquire PIC(Pack#0)
00 01 12 00 00 90 38 CF 
BMS response OK
00 01 12 00 00 00 00 00 00 00 00 10 00 00 00 00 00 00 03 00 00 6A 24 

